Circuit: * C:\Users\phili\Desktop\Travaux\S6\App2\Git\App2S6\LT_CAFONCTIONNE_FKYEA.asc

Instance "m:m2:1": Width narrower than recommended for a level 3 MOSFET.
Instance "m:m1:1": Width narrower than recommended for a level 3 MOSFET.
Direct Newton iteration failed to find .op point.  (Use ".option noopiter" to skip.)
Starting Gmin stepping
Gmin = 10
Gmin = 1.07374
Gmin = 0.115292
Gmin = 0.0123794
Gmin = 0.00132923
Gmin = 0.000142725
Gmin = 1.5325e-005
Gmin = 1.6455e-006
Gmin = 1.76685e-007
Gmin = 1.89714e-008
Gmin = 2.03704e-009
Gmin = 2.18725e-010
Gmin = 2.34854e-011
Gmin = 2.52173e-012
Gmin = 2.70769e-013
Gmin = 0
Gmin stepping succeeded in finding the operating point.

Semiconductor Device Operating Points:
                        --- Diodes ---
Name:    d:m2:sd     d:m2:dg     d:m2:2      d:m2:1      d:m1:sd
Model:   m2:dsub     m2:dcgd     m2:dlim     m2:dlim     m1:dsub
Id:     -2.39e-10   -1.31e-11   -1.00e-04   -1.00e-04   -2.72e-10
Vd:     -1.50e+01   -1.31e+01   -1.31e+01   -1.31e+01   -1.50e+01
Req:     1.00e+12    1.00e+12    1.00e+12    1.00e+12    1.00e+12
CAP:     1.46e-11    1.17e-10    0.00e+00    0.00e+00    1.18e-11

Name:    d:m1:dg     d:m1:2      d:m1:1
Model:   m1:dcgd     m1:dlim     m1:dlim
Id:     -1.33e-11   -1.00e-04   -1.00e-04
Vd:     -1.33e+01   -1.33e+01   -1.33e+01
Req:     1.00e+12    1.00e+12    1.00e+12
CAP:     9.75e-11    0.00e+00    0.00e+00

                        --- Bipolar Transistors ---
Name:       q7b         q7a         q5a         q8          q5b
Model:    2n3906      2n3906      2n3906      2n3906      2n3906
Ib:      -4.61e-05   -5.07e-05   -5.21e-08   -4.60e-05   -1.18e-05
Ic:      -1.01e-02   -9.89e-03   -1.17e-05   -1.01e-02   -2.70e-03
Vbe:     -7.15e-01   -7.17e-01   -5.37e-01   -7.14e-01   -6.78e-01
Vbc:      1.24e+01    0.00e+00    1.24e+01    1.24e+01    1.55e+01
Vce:     -1.32e+01   -7.17e-01   -1.29e+01   -1.31e+01   -1.62e+01
BetaDC:   2.20e+02    1.95e+02    2.25e+02    2.20e+02    2.30e+02
Gm:       3.84e-01    3.73e-01    4.53e-04    3.82e-01    1.04e-01
Rpi:      5.60e+02    5.10e+02    4.96e+05    5.63e+02    2.20e+03
Rx:       2.00e+01    2.00e+01    2.00e+01    2.00e+01    2.00e+01
Ro:       1.11e+04    1.01e+04    9.59e+06    1.11e+04    4.27e+04
Cbe:      1.51e-10    1.47e-10    1.45e-11    1.50e-10    5.23e-11
Cbc:      1.75e-12    4.50e-12    1.75e-12    1.75e-12    1.63e-12
Cjs:      0.00e+00    0.00e+00    0.00e+00    0.00e+00    0.00e+00
BetaAC:   2.15e+02    1.91e+02    2.25e+02    2.15e+02    2.28e+02
Cbx:      0.00e+00    0.00e+00    0.00e+00    0.00e+00    0.00e+00
Ft:       4.01e+08    3.92e+08    4.43e+06    4.01e+08    3.07e+08

Name:       q3b         q4          q3a         q6b         q6a
Model:    2n3906      2n3906      2n3906      2n3904      2n3904
Ib:      -2.44e-05   -2.16e-07   -2.44e-05    3.37e-05    9.64e-05
Ic:      -4.86e-03   -4.87e-05   -4.86e-03    9.86e-03    9.78e-03
Vbe:     -6.97e-01   -5.74e-01   -6.97e-01    7.17e-01    7.19e-01
Vbc:      6.47e-01    1.25e+01    5.74e-01    0.00e+00    6.20e-01
Vce:     -1.34e+00   -1.30e+01   -1.27e+00    7.17e-01    9.87e-02
BetaDC:   1.99e+02    2.25e+02    1.99e+02    2.93e+02    1.01e+02
Gm:       1.86e-01    1.88e-03    1.86e-01    3.72e-01    3.71e-01
Rpi:      1.06e+03    1.20e+05    1.06e+03    7.68e+02    7.46e+02
Rx:       2.00e+01    2.00e+01    2.00e+01    2.00e+01    2.00e+01
Ro:       2.07e+04    2.31e+06    2.07e+04    1.01e+04    1.07e+02
Cbe:      8.11e-11    1.54e-11    8.11e-11    1.43e-10    1.46e-10
Cbc:      3.66e-12    1.75e-12    3.73e-12    4.00e-12    2.39e-09
Cjs:      0.00e+00    0.00e+00    0.00e+00    0.00e+00    0.00e+00
BetaAC:   1.96e+02    2.25e+02    1.96e+02    2.86e+02    2.77e+02
Cbx:      0.00e+00    0.00e+00    0.00e+00    0.00e+00    0.00e+00
Ft:       3.48e+08    1.74e+07    3.48e+08    4.02e+08    2.33e+07

Name:       q9          q2a         q2b         q1b         q1a
Model:    2n3904      2n3904      2n3904      2n3904      2n3904
Ib:       2.50e-05    1.50e-05    1.50e-05    1.60e-05    1.60e-05
Ic:       7.59e-03    4.86e-03    4.86e-03    4.87e-03    4.87e-03
Vbe:      7.09e-01    6.95e-01    6.95e-01    6.96e-01    6.96e-01
Vbc:     -2.94e+00   -8.99e+00   -8.92e+00   -2.79e+00   -2.79e+00
Vce:      3.65e+00    9.69e+00    9.62e+00    3.48e+00    3.48e+00
BetaDC:   3.03e+02    3.23e+02    3.23e+02    3.05e+02    3.05e+02
Gm:       2.88e-01    1.86e-01    1.86e-01    1.86e-01    1.86e-01
Rpi:      1.03e+03    1.72e+03    1.72e+03    1.62e+03    1.62e+03
Rx:       2.00e+01    2.00e+01    2.00e+01    2.00e+01    2.00e+01
Ro:       1.36e+04    2.24e+04    2.24e+04    2.11e+04    2.11e+04
Cbe:      1.14e-10    7.79e-11    7.79e-11    7.81e-11    7.81e-11
Cbc:      2.36e-12    1.72e-12    1.72e-12    2.40e-12    2.40e-12
Cjs:      0.00e+00    0.00e+00    0.00e+00    0.00e+00    0.00e+00
BetaAC:   2.98e+02    3.20e+02    3.20e+02    3.01e+02    3.01e+02
Cbx:      0.00e+00    0.00e+00    0.00e+00    0.00e+00    0.00e+00
Ft:       3.94e+08    3.71e+08    3.71e+08    3.68e+08    3.68e+08

                        --- MOSFET Transistors ---
Name:        m:m2:1      m:m1:1
Model:       m2:pmos     m1:nmos
Id:         -9.42e-04    1.14e-03
Vgs:        -1.91e+00    1.74e+00
Vds:        -1.50e+01    1.50e+01
Vbs:         0.00e+00    0.00e+00
Vth:        -1.90e+00    1.72e+00
Vdsat:      -6.03e-03    7.42e-03
Gm:          1.67e-01    1.63e-01
Gds:         2.39e-05    3.30e-03
Gmb:         2.92e-01    2.85e-01
Cbd:         0.00e+00    0.00e+00
Cbs:         0.00e+00    0.00e+00
Cgsov:       0.00e+00    0.00e+00
Cgdov:       0.00e+00    0.00e+00
Cgbov:       0.00e+00    0.00e+00
Cgs:         3.84e-16    3.84e-16
Cgd:         0.00e+00    0.00e+00
Cgb:         0.00e+00    0.00e+00



Date: Tue May 26 16:23:15 2020
Total elapsed time: 0.103 seconds.

tnom = 27
temp = 27
method = trap
totiter = 586
traniter = 0
tranpoints = 0
accept = 0
rejected = 0
matrix size = 98
fillins = 113
solver = Normal
Matrix Compiler1:     767 opcodes
Matrix Compiler2: 10.78 KB object code size  1.1/1.5/[0.7]

