Circuit: * C:\Users\ldgau\OneDrive - USherbrooke\Uni\S6\APP2\PROB\App2S6\LT_COMPLET_FONCTIONNEL_BO.asc

Instance "m:m2:1": Width narrower than recommended for a level 3 MOSFET.
Instance "m:m1:1": Width narrower than recommended for a level 3 MOSFET.
Direct Newton iteration for .op point succeeded.
Semiconductor Device Operating Points:
                        --- Diodes ---
Name:    d:m2:sd     d:m2:dg     d:m2:2      d:m2:1      d:m1:sd
Model:   m2:dsub     m2:dcgd     m2:dlim     m2:dlim     m1:dsub
Id:     -2.37e-10   -1.03e-11   -1.00e-04   -1.00e-04   -2.74e-10
Vd:     -1.24e+01   -1.03e+01   -1.03e+01   -1.03e+01   -1.76e+01
Req:     1.00e+12    1.00e+12    1.00e+12    1.00e+12    1.00e+12
CAP:     1.69e-11    1.27e-10    0.00e+00    0.00e+00    1.09e-11

Name:    d:m1:dg     d:m1:2      d:m1:1
Model:   m1:dcgd     m1:dlim     m1:dlim
Id:     -1.60e-11   -1.00e-04   -1.00e-04
Vd:     -1.60e+01   -1.60e+01   -1.60e+01
Req:     1.00e+12    1.00e+12    1.00e+12
CAP:     9.01e-11    0.00e+00    0.00e+00

                        --- Bipolar Transistors ---
Name:       q7b         q7a         q5a         q8          q5b
Model:    2n3906      2n3906      2n3906      2n3906      2n3906
Ib:      -4.78e-05   -5.36e-05   -7.74e-08   -5.01e-05   -1.75e-05
Ic:      -1.08e-02   -1.05e-02   -1.74e-05   -1.07e-02   -4.10e-03
Vbe:     -7.16e-01   -7.19e-01   -5.47e-01   -7.17e-01   -6.88e-01
Vbc:      1.52e+01    0.00e+00    1.24e+01    9.60e+00    1.84e+01
Vce:     -1.59e+01   -7.19e-01   -1.30e+01   -1.03e+01   -1.90e+01
BetaDC:   2.25e+02    1.95e+02    2.25e+02    2.14e+02    2.35e+02
Gm:       4.07e-01    3.94e-01    6.73e-04    4.04e-01    1.57e-01
Rpi:      5.41e+02    4.82e+02    3.34e+05    5.17e+02    1.48e+03
Rx:       2.00e+01    2.00e+01    2.00e+01    2.00e+01    2.00e+01
Ro:       1.07e+04    9.57e+03    6.46e+06    1.02e+04    2.88e+04
Cbe:      1.59e-10    1.54e-10    1.47e-11    1.58e-10    7.11e-11
Cbc:      1.64e-12    4.50e-12    1.75e-12    1.89e-12    1.55e-12
Cjs:      0.00e+00    0.00e+00    0.00e+00    0.00e+00    0.00e+00
BetaAC:   2.20e+02    1.90e+02    2.25e+02    2.09e+02    2.33e+02
Cbx:      0.00e+00    0.00e+00    0.00e+00    0.00e+00    0.00e+00
Ft:       4.04e+08    3.95e+08    6.51e+06    4.03e+08    3.45e+08

Name:       q3b         q4          q3a         q6b         q6a
Model:    2n3906      2n3906      2n3906      2n3904      2n3904
Ib:      -2.44e-05   -2.16e-07   -2.45e-05    3.48e-05    3.38e-04
Ic:      -4.86e-03   -4.87e-05   -4.86e-03    1.02e-02    9.79e-03
Vbe:     -6.97e-01   -5.74e-01   -6.97e-01    7.18e-01    7.26e-01
Vbc:      6.77e-01    1.25e+01    5.74e-01    0.00e+00    6.66e-01
Vce:     -1.37e+00   -1.31e+01   -1.27e+00    7.18e-01    6.08e-02
BetaDC:   1.99e+02    2.25e+02    1.99e+02    2.93e+02    2.90e+01
Gm:       1.86e-01    1.88e-03    1.86e-01    3.84e-01    3.79e-01
Rpi:      1.06e+03    1.20e+05    1.06e+03    7.43e+02    6.67e+02
Rx:       2.00e+01    2.00e+01    2.00e+01    2.00e+01    2.00e+01
Ro:       2.07e+04    2.31e+06    2.07e+04    9.82e+03    2.23e+01
Cbe:      8.12e-11    1.54e-11    8.12e-11    1.48e-10    1.61e-10
Cbc:      3.64e-12    1.74e-12    3.73e-12    4.00e-12    1.16e-08
Cjs:      0.00e+00    0.00e+00    0.00e+00    0.00e+00    0.00e+00
BetaAC:   1.97e+02    2.25e+02    1.96e+02    2.85e+02    2.53e+02
Cbx:      0.00e+00    0.00e+00    0.00e+00    0.00e+00    0.00e+00
Ft:       3.49e+08    1.74e+07    3.48e+08    4.03e+08    5.15e+06

Name:       q9          q2a         q2b         q1b         q1a
Model:    2n3904      2n3904      2n3904      2n3904      2n3904
Ib:       2.71e-05    1.50e-05    1.50e-05    1.60e-05    1.60e-05
Ic:       8.20e-03    4.86e-03    4.86e-03    4.88e-03    4.88e-03
Vbe:      7.11e-01    6.95e-01    6.95e-01    6.97e-01    6.97e-01
Vbc:     -2.95e+00   -9.04e+00   -8.94e+00   -2.79e+00   -2.79e+00
Vce:      3.66e+00    9.74e+00    9.63e+00    3.48e+00    3.48e+00
BetaDC:   3.03e+02    3.24e+02    3.23e+02    3.05e+02    3.05e+02
Gm:       3.11e-01    1.86e-01    1.86e-01    1.86e-01    1.86e-01
Rpi:      9.55e+02    1.72e+03    1.72e+03    1.62e+03    1.62e+03
Rx:       2.00e+01    2.00e+01    2.00e+01    2.00e+01    2.00e+01
Ro:       1.26e+04    2.24e+04    2.24e+04    2.11e+04    2.11e+04
Cbe:      1.22e-10    7.80e-11    7.80e-11    7.81e-11    7.81e-11
Cbc:      2.36e-12    1.71e-12    1.72e-12    2.40e-12    2.40e-12
Cjs:      0.00e+00    0.00e+00    0.00e+00    0.00e+00    0.00e+00
BetaAC:   2.97e+02    3.20e+02    3.20e+02    3.01e+02    3.01e+02
Cbx:      0.00e+00    0.00e+00    0.00e+00    0.00e+00    0.00e+00
Ft:       3.98e+08    3.71e+08    3.71e+08    3.68e+08    3.68e+08

                        --- MOSFET Transistors ---
Name:        m:m2:1      m:m1:1
Model:       m2:pmos     m1:nmos
Id:         -2.60e-01    3.52e-11
Vgs:        -2.09e+00    1.58e+00
Vds:        -1.24e+01    1.76e+01
Vbs:         0.00e+00    0.00e+00
Vth:        -1.90e+00    1.67e+00
Vdsat:      -9.87e-02    0.00e+00
Gm:          2.81e+00    0.00e+00
Gds:         1.79e-03    0.00e+00
Gmb:         4.85e+00    0.00e+00
Cbd:         0.00e+00    0.00e+00
Cbs:         0.00e+00    0.00e+00
Cgsov:       0.00e+00    0.00e+00
Cgdov:       0.00e+00    0.00e+00
Cgbov:       0.00e+00    0.00e+00
Cgs:         3.84e-16    2.93e-16
Cgd:         0.00e+00    0.00e+00
Cgb:         0.00e+00    6.80e-17



Date: Wed May 27 10:46:57 2020
Total elapsed time: 0.038 seconds.

tnom = 27
temp = 27
method = trap
totiter = 32
traniter = 0
tranpoints = 0
accept = 0
rejected = 0
matrix size = 98
fillins = 94
solver = Normal
Matrix Compiler1:     695 opcodes
Matrix Compiler2:     795 opcodes
