Circuit: * C:\Users\ldgau\OneDrive - USherbrooke\Uni\S6\APP2\PROB\App2S6\LT_ETAGE_3.asc

Instance "m:m2:1": Width narrower than recommended for a level 3 MOSFET.
Instance "m:m1:1": Width narrower than recommended for a level 3 MOSFET.
Direct Newton iteration for .op point succeeded.
Semiconductor Device Operating Points:
                        --- Diodes ---
Name:    d:m2:sd     d:m2:dg     d:m2:2      d:m2:1      d:m1:sd
Model:   m2:dsub     m2:dcgd     m2:dlim     m2:dlim     m1:dsub
Id:     -2.40e-10   -1.31e-11   -1.00e-04   -1.00e-04   -2.72e-10
Vd:     -1.51e+01   -1.31e+01   -1.31e+01   -1.31e+01   -1.49e+01
Req:     1.00e+12    1.00e+12    1.00e+12    1.00e+12    1.00e+12
CAP:     1.45e-11    1.17e-10    0.00e+00    0.00e+00    1.19e-11

Name:    d:m1:dg     d:m1:2      d:m1:1
Model:   m1:dcgd     m1:dlim     m1:dlim
Id:     -1.32e-11   -1.00e-04   -1.00e-04
Vd:     -1.31e+01   -1.31e+01   -1.31e+01
Req:     1.00e+12    1.00e+12    1.00e+12
CAP:     9.78e-11    0.00e+00    0.00e+00

                        --- Bipolar Transistors ---
Name:       q8          q9
Model:    2n3906      2n3904
Ib:      -4.44e-05    1.58e-05
Ic:      -9.77e-03    4.83e-03
Vbe:     -7.13e-01    6.96e-01
Vbc:      1.24e+01   -3.04e+00
Vce:     -1.31e+01    3.74e+00
BetaDC:   2.20e+02    3.06e+02
Gm:       3.70e-01    1.84e-01
Rpi:      5.82e+02    1.64e+03
Rx:       2.00e+01    2.00e+01
Ro:       1.15e+04    2.13e+04
Cbe:      1.46e-10    7.75e-11
Cbc:      1.75e-12    2.34e-12
Cjs:      0.00e+00    0.00e+00
BetaAC:   2.15e+02    3.02e+02
Cbx:      0.00e+00    0.00e+00
Ft:       3.99e+08    3.68e+08

                        --- MOSFET Transistors ---
Name:        m:m2:1      m:m1:1
Model:       m2:pmos     m1:nmos
Id:         -1.87e-02    2.49e-02
Vgs:        -1.95e+00    1.79e+00
Vds:        -1.51e+01    1.49e+01
Vbs:         0.00e+00    0.00e+00
Vth:        -1.90e+00    1.73e+00
Vdsat:      -2.68e-02    3.48e-02
Gm:          7.46e-01    7.63e-01
Gds:         1.33e-04    1.54e-02
Gmb:         1.30e+00    1.33e+00
Cbd:         0.00e+00    0.00e+00
Cbs:         0.00e+00    0.00e+00
Cgsov:       0.00e+00    0.00e+00
Cgdov:       0.00e+00    0.00e+00
Cgbov:       0.00e+00    0.00e+00
Cgs:         3.84e-16    3.84e-16
Cgd:         0.00e+00    0.00e+00
Cgb:         0.00e+00    0.00e+00



Date: Sun May 24 13:21:38 2020
Total elapsed time: 0.039 seconds.

tnom = 27
temp = 27
method = trap
totiter = 21
traniter = 0
tranpoints = 0
accept = 0
rejected = 0
matrix size = 38
fillins = 25
solver = Normal
Matrix Compiler1:     217 opcodes
Matrix Compiler2: 3.64 KB object code size
